
**** 12/26/12 08:56:07 ****** PSpice Lite (October 2012) ****** ID# 10813 ****

 ** Profile: "SCHEMATIC1-Freq response"  [ C:\Users\Matthew Einhorn\Desktop\CPL ADC Board\Noise\decoupling\decoupling models-pspicefi


 ****     CIRCUIT DESCRIPTION


******************************************************************************




** Creating circuit file "Freq response.cir" 
** WARNING: THIS AUTOMATICALLY GENERATED FILE MAY BE OVERWRITTEN BY SUBSEQUENT SIMULATIONS

*Libraries: 
* Profile Libraries :
.INC "C:\Users\Matthew Einhorn\Desktop\CPL ADC Board\Noise\decoupling\decoupling models-pspicefiles\schematic1\Freq response\Freq r"
+ "esponse_profile.inc" 
* Local Libraries :
* From [PSPICE NETLIST] section of C:\Users\Matthew Einhorn\Documents\cdssetup\OrCAD_PSpice/16.6.0/PSpice.ini file:

**** INCLUDING "Freq response_profile.inc" ****
.LIB    ".\grm188.lib" 
.LIB    ".\grm188r60j106me47.lib" 

**** RESUMING "Freq response.cir" ****
.lib "nomd.lib" 

*Analysis directives: 
.AC DEC 1000 1k 1G
.OPTIONS ADVCONV
.PROBE64 V(alias(*)) I(alias(*)) W(alias(*)) D(alias(*)) NOISE(alias(*)) 
.INC "..\SCHEMATIC1.net" 



**** INCLUDING SCHEMATIC1.net ****
* source DECOUPLING MODELS
V_V2         N845480 0 5Vdc
R_R46         N84048 N84460  18G TC=0,0 
X_U2         0 N84048 GRM188R60J106ME47 
C_C14         N84190 N84048  1u  
R_R47         N84048 N845480  0.1 TC=0,0 
R_R42         N84048 N84190  .9G TC=0,0 
R_R43         N84048 0  10G TC=0,0 
C_C15         N84460 N84048  100n  
R_R45         N84460 N844040  0.0163 TC=0,0 
R_R41         N84190 N841340  0.0056 TC=0,0 
L_L11         N844040 0  0.42nH  
I_I10         N84048 0 DC 0Adc AC 0Aac
+PULSE 0 1 0 1p 1p 5n 1u
L_L10         N841340 0  0.42nH  
L_L13         N861260 0  0.42nH  
V_V3         N862640 0 5Vdc
R_R51         N86162 N861260  0.0163 TC=0,0 
R_R48         N86006 N859500  0.0056 TC=0,0 
R_R53         N85892 N862640  0.1 TC=0,0 
R_R50         N85892 0  10G TC=0,0 
L_L12         N859500 0  0.42nH  
R_R49         N85892 N86006  .9G TC=0,0 
R_R52         N85892 N86162  18G TC=0,0 
X_U3         0 N85892 GRM188R60J106ME47 
C_C17         N86162 N85892  100n  
C_C16         N86006 N85892  1u  
I_I11         N85892 0 DC 0Adc AC 1Aac 

**** RESUMING "Freq response.cir" ****
.END

**** 12/26/12 08:56:07 ****** PSpice Lite (October 2012) ****** ID# 10813 ****

 ** Profile: "SCHEMATIC1-Freq response"  [ C:\Users\Matthew Einhorn\Desktop\CPL ADC Board\Noise\decoupling\decoupling models-pspicefi


 ****     SMALL SIGNAL BIAS SOLUTION       TEMPERATURE =   27.000 DEG C


******************************************************************************



 NODE   VOLTAGE     NODE   VOLTAGE     NODE   VOLTAGE     NODE   VOLTAGE


(N84048)    5.0000 (N84190) 31.11E-12 (N84460) 4.528E-12 (N85892)    5.0000     

(N86006) 31.11E-12 (N86162) 4.528E-12 (N841340)    0.0000                       

(N844040)    0.0000                   (N845480)    5.0000                       

(N859500)    0.0000                   (N861260)    0.0000                       

(N862640)    5.0000                   (X_U2.11)    4.9999                       

(X_U2.12)    4.9999                   (X_U2.13)    4.9999                       

(X_U2.14)    5.0000                   (X_U2.15)    5.0000                       

(X_U2.16)    5.0000                   (X_U2.17)    5.0000                       

(X_U2.18)    5.0000                   (X_U2.19)    5.0000                       

(X_U2.20)    5.0000                   (X_U2.21)    5.0000                       

(X_U2.22)    5.0000                   (X_U2.23)    5.0000                       

(X_U2.24)    5.0000                   (X_U3.11)    4.9999                       

(X_U3.12)    4.9999                   (X_U3.13)    4.9999                       

(X_U3.14)    5.0000                   (X_U3.15)    5.0000                       

(X_U3.16)    5.0000                   (X_U3.17)    5.0000                       

(X_U3.18)    5.0000                   (X_U3.19)    5.0000                       

(X_U3.20)    5.0000                   (X_U3.21)    5.0000                       

(X_U3.22)    5.0000                   (X_U3.23)    5.0000                       

(X_U3.24)    5.0000                   




    VOLTAGE SOURCE CURRENTS
    NAME         CURRENT

    V_V2        -1.006E-06
    V_V3        -1.006E-06

    TOTAL POWER DISSIPATION   1.01E-05  WATTS



          JOB CONCLUDED

**** 12/26/12 08:56:07 ****** PSpice Lite (October 2012) ****** ID# 10813 ****

 ** Profile: "SCHEMATIC1-Freq response"  [ C:\Users\Matthew Einhorn\Desktop\CPL ADC Board\Noise\decoupling\decoupling models-pspicefi


 ****     JOB STATISTICS SUMMARY


******************************************************************************



  Total job time (using Solver 1)   =         .31
